             * c:\users\hp\esim-workspace\multiplier\multiplier.cir
             Transient Analysis  Fri May 14 20:11:32  2021
--------------------------------------------------------------------------------
Index   time            a0              a1              b0              
--------------------------------------------------------------------------------
0	0.000000e+000	0.000000e+000	0.000000e+000	0.000000e+000	
1	1.000000e-007	0.000000e+000	0.000000e+000	0.000000e+000	
2	2.000000e-007	0.000000e+000	0.000000e+000	0.000000e+000	
3	4.000000e-007	0.000000e+000	0.000000e+000	0.000000e+000	
4	8.000000e-007	0.000000e+000	0.000000e+000	0.000000e+000	
5	1.600000e-006	0.000000e+000	0.000000e+000	0.000000e+000	
6	3.200000e-006	0.000000e+000	0.000000e+000	0.000000e+000	
7	6.400000e-006	0.000000e+000	0.000000e+000	0.000000e+000	
8	1.000000e-005	0.000000e+000	0.000000e+000	0.000000e+000	
9	1.064000e-005	6.400000e-001	6.400000e-001	6.400000e-001	
10	1.192000e-005	1.920000e+000	1.920000e+000	1.920000e+000	
11	1.192200e-005	1.922000e+000	1.922000e+000	1.922000e+000	
12	1.192210e-005	1.922100e+000	1.922100e+000	1.922100e+000	
13	1.192230e-005	1.922300e+000	1.922300e+000	1.922300e+000	
14	1.192270e-005	1.922700e+000	1.922700e+000	1.922700e+000	
15	1.192300e-005	1.923000e+000	1.923000e+000	1.923000e+000	
16	1.192308e-005	1.923080e+000	1.923080e+000	1.923080e+000	
17	1.192324e-005	1.923240e+000	1.923240e+000	1.923240e+000	
18	1.192356e-005	1.923560e+000	1.923560e+000	1.923560e+000	
19	1.192420e-005	1.924200e+000	1.924200e+000	1.924200e+000	
20	1.192548e-005	1.925480e+000	1.925480e+000	1.925480e+000	
21	1.192804e-005	1.928040e+000	1.928040e+000	1.928040e+000	
22	1.193316e-005	1.933160e+000	1.933160e+000	1.933160e+000	
23	1.194340e-005	1.943400e+000	1.943400e+000	1.943400e+000	
24	1.196388e-005	1.963880e+000	1.963880e+000	1.963880e+000	
25	1.200484e-005	2.004840e+000	2.004840e+000	2.004840e+000	
26	1.208676e-005	2.086760e+000	2.086760e+000	2.086760e+000	
27	1.225060e-005	2.250600e+000	2.250600e+000	2.250600e+000	
28	1.257828e-005	2.578280e+000	2.578280e+000	2.578280e+000	
29	1.323364e-005	3.233640e+000	3.233640e+000	3.233640e+000	
30	1.454436e-005	4.544360e+000	4.544360e+000	4.544360e+000	
31	1.716580e-005	7.165800e+000	7.165800e+000	7.165800e+000	
32	2.000000e-005	1.000000e+001	1.000000e+001	1.000000e+001	
33	2.052429e-005	1.000000e+001	1.000000e+001	1.000000e+001	
34	2.157286e-005	1.000000e+001	1.000000e+001	1.000000e+001	
35	2.367002e-005	1.000000e+001	1.000000e+001	1.000000e+001	
36	2.786432e-005	1.000000e+001	1.000000e+001	1.000000e+001	
37	3.625293e-005	1.000000e+001	1.000000e+001	1.000000e+001	
38	5.303014e-005	1.000000e+001	1.000000e+001	1.000000e+001	
39	8.658458e-005	1.000000e+001	1.000000e+001	1.000000e+001	
40	1.536934e-004	1.000000e+001	1.000000e+001	1.000000e+001	
41	2.879112e-004	1.000000e+001	1.000000e+001	1.000000e+001	
42	5.563466e-004	1.000000e+001	1.000000e+001	1.000000e+001	
43	1.093218e-003	1.000000e+001	1.000000e+001	1.000000e+001	
44	2.020000e-003	1.000000e+001	1.000000e+001	1.000000e+001	
45	2.021000e-003	9.000000e+000	1.000000e+001	1.000000e+001	
46	2.023000e-003	7.000000e+000	1.000000e+001	1.000000e+001	
47	2.027000e-003	3.000000e+000	1.000000e+001	1.000000e+001	
48	2.030000e-003	0.000000e+000	1.000000e+001	1.000000e+001	
49	2.030002e-003	0.000000e+000	1.000000e+001	1.000000e+001	
50	2.030002e-003	0.000000e+000	1.000000e+001	1.000000e+001	
51	2.030002e-003	0.000000e+000	1.000000e+001	1.000000e+001	
52	2.030003e-003	0.000000e+000	1.000000e+001	1.000000e+001	
53	2.030003e-003	0.000000e+000	1.000000e+001	1.000000e+001	
54	2.030003e-003	0.000000e+000	1.000000e+001	1.000000e+001	

Index   time            a0              a1              b0              
--------------------------------------------------------------------------------
55	2.030003e-003	0.000000e+000	1.000000e+001	1.000000e+001	
56	2.030004e-003	0.000000e+000	1.000000e+001	1.000000e+001	
57	2.030004e-003	0.000000e+000	1.000000e+001	1.000000e+001	
58	2.030005e-003	0.000000e+000	1.000000e+001	1.000000e+001	
59	2.030008e-003	0.000000e+000	1.000000e+001	1.000000e+001	
60	2.030013e-003	0.000000e+000	1.000000e+001	1.000000e+001	
61	2.030023e-003	0.000000e+000	1.000000e+001	1.000000e+001	
62	2.030044e-003	0.000000e+000	1.000000e+001	1.000000e+001	
63	2.030085e-003	0.000000e+000	1.000000e+001	1.000000e+001	
64	2.030167e-003	0.000000e+000	1.000000e+001	1.000000e+001	
65	2.030331e-003	0.000000e+000	1.000000e+001	1.000000e+001	
66	2.030658e-003	0.000000e+000	1.000000e+001	1.000000e+001	
67	2.031314e-003	0.000000e+000	1.000000e+001	1.000000e+001	
68	2.032624e-003	0.000000e+000	1.000000e+001	1.000000e+001	
69	2.035246e-003	0.000000e+000	1.000000e+001	1.000000e+001	
70	2.040489e-003	0.000000e+000	1.000000e+001	1.000000e+001	
71	2.050974e-003	0.000000e+000	1.000000e+001	1.000000e+001	
72	2.071946e-003	0.000000e+000	1.000000e+001	1.000000e+001	
73	2.113889e-003	0.000000e+000	1.000000e+001	1.000000e+001	
74	2.197775e-003	0.000000e+000	1.000000e+001	1.000000e+001	
75	2.365547e-003	0.000000e+000	1.000000e+001	1.000000e+001	
76	2.701092e-003	0.000000e+000	1.000000e+001	1.000000e+001	
77	3.372180e-003	0.000000e+000	1.000000e+001	1.000000e+001	
78	4.010000e-003	0.000000e+000	1.000000e+001	1.000000e+001	
79	4.011000e-003	1.000000e+000	1.000000e+001	1.000000e+001	
80	4.011002e-003	1.002000e+000	1.000000e+001	1.000000e+001	
81	4.011002e-003	1.002100e+000	1.000000e+001	1.000000e+001	
82	4.011002e-003	1.002300e+000	1.000000e+001	1.000000e+001	
83	4.011003e-003	1.002700e+000	1.000000e+001	1.000000e+001	
84	4.011003e-003	1.003000e+000	1.000000e+001	1.000000e+001	
85	4.011003e-003	1.003080e+000	1.000000e+001	1.000000e+001	
86	4.011003e-003	1.003240e+000	1.000000e+001	1.000000e+001	
87	4.011004e-003	1.003560e+000	1.000000e+001	1.000000e+001	
88	4.011004e-003	1.004200e+000	1.000000e+001	1.000000e+001	
89	4.011005e-003	1.005480e+000	1.000000e+001	1.000000e+001	
90	4.011008e-003	1.008040e+000	1.000000e+001	1.000000e+001	
91	4.011013e-003	1.013160e+000	1.000000e+001	1.000000e+001	
92	4.011023e-003	1.023400e+000	1.000000e+001	1.000000e+001	
93	4.011044e-003	1.043880e+000	1.000000e+001	1.000000e+001	
94	4.011085e-003	1.084840e+000	1.000000e+001	1.000000e+001	
95	4.011167e-003	1.166760e+000	1.000000e+001	1.000000e+001	
96	4.011331e-003	1.330600e+000	1.000000e+001	1.000000e+001	
97	4.011658e-003	1.658280e+000	1.000000e+001	1.000000e+001	
98	4.012314e-003	2.313640e+000	1.000000e+001	1.000000e+001	
99	4.013624e-003	3.624360e+000	1.000000e+001	1.000000e+001	
100	4.016246e-003	6.245800e+000	1.000000e+001	1.000000e+001	
101	4.020000e-003	1.000000e+001	1.000000e+001	1.000000e+001	
102	4.020524e-003	1.000000e+001	9.475712e+000	1.000000e+001	
103	4.021573e-003	1.000000e+001	8.427136e+000	1.000000e+001	
104	4.023670e-003	1.000000e+001	6.329984e+000	1.000000e+001	
105	4.027864e-003	1.000000e+001	2.135680e+000	1.000000e+001	
106	4.030000e-003	1.000000e+001	0.000000e+000	1.000000e+001	
107	4.030002e-003	1.000000e+001	0.000000e+000	1.000000e+001	
108	4.030002e-003	1.000000e+001	0.000000e+000	1.000000e+001	
109	4.030002e-003	1.000000e+001	0.000000e+000	1.000000e+001	
110	4.030003e-003	1.000000e+001	0.000000e+000	1.000000e+001	
111	4.030003e-003	1.000000e+001	0.000000e+000	1.000000e+001	
112	4.030003e-003	1.000000e+001	0.000000e+000	1.000000e+001	

Index   time            a0              a1              b0              
--------------------------------------------------------------------------------
113	4.030003e-003	1.000000e+001	0.000000e+000	1.000000e+001	
114	4.030004e-003	1.000000e+001	0.000000e+000	1.000000e+001	
115	4.030004e-003	1.000000e+001	0.000000e+000	1.000000e+001	
116	4.030005e-003	1.000000e+001	0.000000e+000	1.000000e+001	
117	4.030008e-003	1.000000e+001	0.000000e+000	1.000000e+001	
118	4.030013e-003	1.000000e+001	0.000000e+000	1.000000e+001	
119	4.030023e-003	1.000000e+001	0.000000e+000	1.000000e+001	
120	4.030044e-003	1.000000e+001	0.000000e+000	1.000000e+001	
121	4.030085e-003	1.000000e+001	0.000000e+000	1.000000e+001	
122	4.030167e-003	1.000000e+001	0.000000e+000	1.000000e+001	
123	4.030331e-003	1.000000e+001	0.000000e+000	1.000000e+001	
124	4.030658e-003	1.000000e+001	0.000000e+000	1.000000e+001	
125	4.031314e-003	1.000000e+001	0.000000e+000	1.000000e+001	
126	4.032624e-003	1.000000e+001	0.000000e+000	1.000000e+001	
127	4.035246e-003	1.000000e+001	0.000000e+000	1.000000e+001	
128	4.040489e-003	1.000000e+001	0.000000e+000	1.000000e+001	
129	4.050974e-003	1.000000e+001	0.000000e+000	1.000000e+001	
130	4.071946e-003	1.000000e+001	0.000000e+000	1.000000e+001	
131	4.113889e-003	1.000000e+001	0.000000e+000	1.000000e+001	
132	4.197775e-003	1.000000e+001	0.000000e+000	1.000000e+001	
133	4.365547e-003	1.000000e+001	0.000000e+000	1.000000e+001	
134	4.701092e-003	1.000000e+001	0.000000e+000	1.000000e+001	
135	5.372180e-003	1.000000e+001	0.000000e+000	1.000000e+001	
136	6.020000e-003	1.000000e+001	0.000000e+000	1.000000e+001	
137	6.021000e-003	9.000000e+000	0.000000e+000	1.000000e+001	
138	6.023000e-003	7.000000e+000	0.000000e+000	1.000000e+001	
139	6.027000e-003	3.000000e+000	0.000000e+000	1.000000e+001	
140	6.030000e-003	4.138911e-013	0.000000e+000	1.000000e+001	
141	6.030002e-003	0.000000e+000	0.000000e+000	1.000000e+001	
142	6.030002e-003	0.000000e+000	0.000000e+000	1.000000e+001	
143	6.030002e-003	0.000000e+000	0.000000e+000	1.000000e+001	
144	6.030003e-003	0.000000e+000	0.000000e+000	1.000000e+001	
145	6.030003e-003	0.000000e+000	0.000000e+000	1.000000e+001	
146	6.030003e-003	0.000000e+000	0.000000e+000	1.000000e+001	
147	6.030003e-003	0.000000e+000	0.000000e+000	1.000000e+001	
148	6.030004e-003	0.000000e+000	0.000000e+000	1.000000e+001	
149	6.030004e-003	0.000000e+000	0.000000e+000	1.000000e+001	
150	6.030005e-003	0.000000e+000	0.000000e+000	1.000000e+001	
151	6.030008e-003	0.000000e+000	0.000000e+000	1.000000e+001	
152	6.030013e-003	0.000000e+000	0.000000e+000	1.000000e+001	
153	6.030023e-003	0.000000e+000	0.000000e+000	1.000000e+001	
154	6.030044e-003	0.000000e+000	0.000000e+000	1.000000e+001	
155	6.030085e-003	0.000000e+000	0.000000e+000	1.000000e+001	
156	6.030167e-003	0.000000e+000	0.000000e+000	1.000000e+001	
157	6.030331e-003	0.000000e+000	0.000000e+000	1.000000e+001	
158	6.030658e-003	0.000000e+000	0.000000e+000	1.000000e+001	
159	6.031314e-003	0.000000e+000	0.000000e+000	1.000000e+001	
160	6.032624e-003	0.000000e+000	0.000000e+000	1.000000e+001	
161	6.035246e-003	0.000000e+000	0.000000e+000	1.000000e+001	
162	6.040489e-003	0.000000e+000	0.000000e+000	1.000000e+001	
163	6.050974e-003	0.000000e+000	0.000000e+000	1.000000e+001	
164	6.071946e-003	0.000000e+000	0.000000e+000	1.000000e+001	
165	6.113889e-003	0.000000e+000	0.000000e+000	1.000000e+001	
166	6.197775e-003	0.000000e+000	0.000000e+000	1.000000e+001	
167	6.365547e-003	0.000000e+000	0.000000e+000	1.000000e+001	
168	6.701092e-003	0.000000e+000	0.000000e+000	1.000000e+001	
169	7.372180e-003	0.000000e+000	0.000000e+000	1.000000e+001	
170	8.010000e-003	0.000000e+000	0.000000e+000	1.000000e+001	

Index   time            a0              a1              b0              
--------------------------------------------------------------------------------
171	8.011000e-003	1.000000e+000	1.000000e+000	1.000000e+001	
172	8.013000e-003	3.000000e+000	3.000000e+000	1.000000e+001	
173	8.013002e-003	3.002000e+000	3.002000e+000	1.000000e+001	
174	8.013002e-003	3.002100e+000	3.002100e+000	1.000000e+001	
175	8.013002e-003	3.002300e+000	3.002300e+000	1.000000e+001	
176	8.013003e-003	3.002700e+000	3.002700e+000	1.000000e+001	
177	8.013003e-003	3.003000e+000	3.003000e+000	1.000000e+001	
178	8.013003e-003	3.003080e+000	3.003080e+000	1.000000e+001	
179	8.013003e-003	3.003240e+000	3.003240e+000	1.000000e+001	
180	8.013004e-003	3.003560e+000	3.003560e+000	1.000000e+001	
181	8.013004e-003	3.004200e+000	3.004200e+000	1.000000e+001	
182	8.013005e-003	3.005480e+000	3.005480e+000	1.000000e+001	
183	8.013008e-003	3.008040e+000	3.008040e+000	1.000000e+001	
184	8.013013e-003	3.013160e+000	3.013160e+000	1.000000e+001	
185	8.013023e-003	3.023400e+000	3.023400e+000	1.000000e+001	
186	8.013044e-003	3.043880e+000	3.043880e+000	1.000000e+001	
187	8.013085e-003	3.084840e+000	3.084840e+000	1.000000e+001	
188	8.013167e-003	3.166760e+000	3.166760e+000	1.000000e+001	
189	8.013331e-003	3.330600e+000	3.330600e+000	1.000000e+001	
190	8.013658e-003	3.658280e+000	3.658280e+000	1.000000e+001	
191	8.014314e-003	4.313640e+000	4.313640e+000	1.000000e+001	
192	8.015624e-003	5.624360e+000	5.624360e+000	1.000000e+001	
193	8.018246e-003	8.245800e+000	8.245800e+000	1.000000e+001	
194	8.020000e-003	1.000000e+001	1.000000e+001	1.000000e+001	
195	8.020524e-003	1.000000e+001	1.000000e+001	9.475712e+000	
196	8.021573e-003	1.000000e+001	1.000000e+001	8.427136e+000	
197	8.023670e-003	1.000000e+001	1.000000e+001	6.329984e+000	
198	8.027864e-003	1.000000e+001	1.000000e+001	2.135680e+000	
199	8.030000e-003	1.000000e+001	1.000000e+001	0.000000e+000	
200	8.030002e-003	1.000000e+001	1.000000e+001	0.000000e+000	
201	8.030002e-003	1.000000e+001	1.000000e+001	0.000000e+000	
202	8.030002e-003	1.000000e+001	1.000000e+001	0.000000e+000	
203	8.030003e-003	1.000000e+001	1.000000e+001	0.000000e+000	
204	8.030003e-003	1.000000e+001	1.000000e+001	0.000000e+000	
205	8.030003e-003	1.000000e+001	1.000000e+001	0.000000e+000	
206	8.030003e-003	1.000000e+001	1.000000e+001	0.000000e+000	
207	8.030004e-003	1.000000e+001	1.000000e+001	0.000000e+000	
208	8.030004e-003	1.000000e+001	1.000000e+001	0.000000e+000	
209	8.030005e-003	1.000000e+001	1.000000e+001	0.000000e+000	
210	8.030008e-003	1.000000e+001	1.000000e+001	0.000000e+000	
211	8.030013e-003	1.000000e+001	1.000000e+001	0.000000e+000	
212	8.030023e-003	1.000000e+001	1.000000e+001	0.000000e+000	
213	8.030044e-003	1.000000e+001	1.000000e+001	0.000000e+000	
214	8.030085e-003	1.000000e+001	1.000000e+001	0.000000e+000	
215	8.030167e-003	1.000000e+001	1.000000e+001	0.000000e+000	
216	8.030331e-003	1.000000e+001	1.000000e+001	0.000000e+000	
217	8.030658e-003	1.000000e+001	1.000000e+001	0.000000e+000	
218	8.031314e-003	1.000000e+001	1.000000e+001	0.000000e+000	
219	8.032624e-003	1.000000e+001	1.000000e+001	0.000000e+000	
220	8.035246e-003	1.000000e+001	1.000000e+001	0.000000e+000	
221	8.040489e-003	1.000000e+001	1.000000e+001	0.000000e+000	
222	8.050974e-003	1.000000e+001	1.000000e+001	0.000000e+000	
223	8.071946e-003	1.000000e+001	1.000000e+001	0.000000e+000	
224	8.113889e-003	1.000000e+001	1.000000e+001	0.000000e+000	
225	8.197775e-003	1.000000e+001	1.000000e+001	0.000000e+000	
226	8.365547e-003	1.000000e+001	1.000000e+001	0.000000e+000	
227	8.701092e-003	1.000000e+001	1.000000e+001	0.000000e+000	
228	9.372180e-003	1.000000e+001	1.000000e+001	0.000000e+000	

Index   time            a0              a1              b0              
--------------------------------------------------------------------------------
229	1.002000e-002	1.000000e+001	1.000000e+001	0.000000e+000	
230	1.002100e-002	9.000000e+000	1.000000e+001	0.000000e+000	
231	1.002300e-002	7.000000e+000	1.000000e+001	0.000000e+000	
232	1.002700e-002	3.000000e+000	1.000000e+001	0.000000e+000	
233	1.003000e-002	1.280753e-012	1.000000e+001	0.000000e+000	
234	1.003000e-002	0.000000e+000	1.000000e+001	0.000000e+000	
235	1.003000e-002	0.000000e+000	1.000000e+001	0.000000e+000	
236	1.003000e-002	0.000000e+000	1.000000e+001	0.000000e+000	
237	1.003000e-002	0.000000e+000	1.000000e+001	0.000000e+000	
238	1.003000e-002	0.000000e+000	1.000000e+001	0.000000e+000	
239	1.003000e-002	0.000000e+000	1.000000e+001	0.000000e+000	
240	1.003000e-002	0.000000e+000	1.000000e+001	0.000000e+000	
241	1.003000e-002	0.000000e+000	1.000000e+001	0.000000e+000	
242	1.003000e-002	0.000000e+000	1.000000e+001	0.000000e+000	
243	1.003001e-002	0.000000e+000	1.000000e+001	0.000000e+000	
244	1.003001e-002	0.000000e+000	1.000000e+001	0.000000e+000	
245	1.003001e-002	0.000000e+000	1.000000e+001	0.000000e+000	
246	1.003002e-002	0.000000e+000	1.000000e+001	0.000000e+000	
247	1.003004e-002	0.000000e+000	1.000000e+001	0.000000e+000	
248	1.003008e-002	0.000000e+000	1.000000e+001	0.000000e+000	
249	1.003017e-002	0.000000e+000	1.000000e+001	0.000000e+000	
250	1.003033e-002	0.000000e+000	1.000000e+001	0.000000e+000	
251	1.003066e-002	0.000000e+000	1.000000e+001	0.000000e+000	
252	1.003131e-002	0.000000e+000	1.000000e+001	0.000000e+000	
253	1.003262e-002	0.000000e+000	1.000000e+001	0.000000e+000	
254	1.003525e-002	0.000000e+000	1.000000e+001	0.000000e+000	
255	1.004049e-002	0.000000e+000	1.000000e+001	0.000000e+000	
256	1.005097e-002	0.000000e+000	1.000000e+001	0.000000e+000	
257	1.007195e-002	0.000000e+000	1.000000e+001	0.000000e+000	
258	1.011389e-002	0.000000e+000	1.000000e+001	0.000000e+000	
259	1.019778e-002	0.000000e+000	1.000000e+001	0.000000e+000	
260	1.036555e-002	0.000000e+000	1.000000e+001	0.000000e+000	
261	1.070109e-002	0.000000e+000	1.000000e+001	0.000000e+000	
262	1.137218e-002	0.000000e+000	1.000000e+001	0.000000e+000	
263	1.201000e-002	0.000000e+000	1.000000e+001	0.000000e+000	
264	1.201100e-002	1.000000e+000	1.000000e+001	0.000000e+000	
265	1.201300e-002	3.000000e+000	1.000000e+001	0.000000e+000	
266	1.201300e-002	3.002000e+000	1.000000e+001	0.000000e+000	
267	1.201300e-002	3.002100e+000	1.000000e+001	0.000000e+000	
268	1.201300e-002	3.002300e+000	1.000000e+001	0.000000e+000	
269	1.201300e-002	3.002700e+000	1.000000e+001	0.000000e+000	
270	1.201300e-002	3.003000e+000	1.000000e+001	0.000000e+000	
271	1.201300e-002	3.003080e+000	1.000000e+001	0.000000e+000	
272	1.201300e-002	3.003240e+000	1.000000e+001	0.000000e+000	
273	1.201300e-002	3.003560e+000	1.000000e+001	0.000000e+000	
274	1.201300e-002	3.004200e+000	1.000000e+001	0.000000e+000	
275	1.201301e-002	3.005480e+000	1.000000e+001	0.000000e+000	
276	1.201301e-002	3.008040e+000	1.000000e+001	0.000000e+000	
277	1.201301e-002	3.013160e+000	1.000000e+001	0.000000e+000	
278	1.201302e-002	3.023400e+000	1.000000e+001	0.000000e+000	
279	1.201304e-002	3.043880e+000	1.000000e+001	0.000000e+000	
280	1.201308e-002	3.084840e+000	1.000000e+001	0.000000e+000	
281	1.201317e-002	3.166760e+000	1.000000e+001	0.000000e+000	
282	1.201333e-002	3.330600e+000	1.000000e+001	0.000000e+000	
283	1.201366e-002	3.658280e+000	1.000000e+001	0.000000e+000	
284	1.201431e-002	4.313640e+000	1.000000e+001	0.000000e+000	
285	1.201562e-002	5.624360e+000	1.000000e+001	0.000000e+000	
286	1.201825e-002	8.245800e+000	1.000000e+001	0.000000e+000	

Index   time            a0              a1              b0              
--------------------------------------------------------------------------------
287	1.202000e-002	1.000000e+001	1.000000e+001	0.000000e+000	
288	1.202052e-002	1.000000e+001	9.475712e+000	0.000000e+000	
289	1.202157e-002	1.000000e+001	8.427136e+000	0.000000e+000	
290	1.202367e-002	1.000000e+001	6.329984e+000	0.000000e+000	
291	1.202786e-002	1.000000e+001	2.135680e+000	0.000000e+000	
292	1.203000e-002	1.000000e+001	0.000000e+000	0.000000e+000	
293	1.203000e-002	1.000000e+001	0.000000e+000	0.000000e+000	
294	1.203000e-002	1.000000e+001	0.000000e+000	0.000000e+000	
295	1.203000e-002	1.000000e+001	0.000000e+000	0.000000e+000	
296	1.203000e-002	1.000000e+001	0.000000e+000	0.000000e+000	
297	1.203000e-002	1.000000e+001	0.000000e+000	0.000000e+000	
298	1.203000e-002	1.000000e+001	0.000000e+000	0.000000e+000	
299	1.203000e-002	1.000000e+001	0.000000e+000	0.000000e+000	
300	1.203000e-002	1.000000e+001	0.000000e+000	0.000000e+000	
301	1.203000e-002	1.000000e+001	0.000000e+000	0.000000e+000	
302	1.203001e-002	1.000000e+001	0.000000e+000	0.000000e+000	
303	1.203001e-002	1.000000e+001	0.000000e+000	0.000000e+000	
304	1.203001e-002	1.000000e+001	0.000000e+000	0.000000e+000	
