                   * c:\users\saisr\esim-workspace\jc\jc.cir
                   Transient Analysis  Fri May 14 15:35:37  2021
--------------------------------------------------------------------------------
Index   time            in1             in2             out1            
--------------------------------------------------------------------------------
0	0.000000e+000	0.000000e+000	0.000000e+000	0.000000e+000	
1	1.000000e-007	0.000000e+000	0.000000e+000	0.000000e+000	
2	2.000000e-007	0.000000e+000	0.000000e+000	0.000000e+000	
3	4.000000e-007	0.000000e+000	0.000000e+000	0.000000e+000	
4	8.000000e-007	0.000000e+000	0.000000e+000	0.000000e+000	
5	1.600000e-006	0.000000e+000	0.000000e+000	0.000000e+000	
6	3.200000e-006	0.000000e+000	0.000000e+000	0.000000e+000	
7	6.400000e-006	0.000000e+000	0.000000e+000	0.000000e+000	
8	1.000000e-005	0.000000e+000	0.000000e+000	0.000000e+000	
9	1.064000e-005	6.400000e-001	6.400000e-001	0.000000e+000	
10	1.192000e-005	1.920000e+000	1.920000e+000	0.000000e+000	
11	1.448000e-005	4.480000e+000	4.480000e+000	0.000000e+000	
12	1.960000e-005	9.600000e+000	9.600000e+000	0.000000e+000	
13	2.000000e-005	1.000000e+001	1.000000e+001	0.000000e+000	
14	2.080000e-005	1.000000e+001	1.000000e+001	0.000000e+000	
15	2.240000e-005	1.000000e+001	1.000000e+001	0.000000e+000	
16	2.560000e-005	1.000000e+001	1.000000e+001	0.000000e+000	
17	3.200000e-005	1.000000e+001	1.000000e+001	0.000000e+000	
18	4.480000e-005	1.000000e+001	1.000000e+001	0.000000e+000	
19	7.040000e-005	1.000000e+001	1.000000e+001	0.000000e+000	
20	1.216000e-004	1.000000e+001	1.000000e+001	0.000000e+000	
21	2.240000e-004	1.000000e+001	1.000000e+001	0.000000e+000	
22	4.288000e-004	1.000000e+001	1.000000e+001	0.000000e+000	
23	8.384000e-004	1.000000e+001	1.000000e+001	0.000000e+000	
24	1.020000e-003	1.000000e+001	1.000000e+001	0.000000e+000	
25	1.021000e-003	1.000000e+001	9.000000e+000	0.000000e+000	
26	1.023000e-003	1.000000e+001	7.000000e+000	0.000000e+000	
27	1.027000e-003	1.000000e+001	3.000000e+000	0.000000e+000	
28	1.030000e-003	1.000000e+001	0.000000e+000	0.000000e+000	
29	1.030002e-003	1.000000e+001	0.000000e+000	0.000000e+000	
30	1.030002e-003	1.000000e+001	0.000000e+000	0.000000e+000	
31	1.030002e-003	1.000000e+001	0.000000e+000	0.000000e+000	
32	1.030003e-003	1.000000e+001	0.000000e+000	0.000000e+000	
33	1.030003e-003	1.000000e+001	0.000000e+000	0.000000e+000	
34	1.030003e-003	1.000000e+001	0.000000e+000	0.000000e+000	
35	1.030003e-003	1.000000e+001	0.000000e+000	0.000000e+000	
36	1.030004e-003	1.000000e+001	0.000000e+000	0.000000e+000	
37	1.030004e-003	1.000000e+001	0.000000e+000	0.000000e+000	
38	1.030005e-003	1.000000e+001	0.000000e+000	0.000000e+000	
39	1.030008e-003	1.000000e+001	0.000000e+000	0.000000e+000	
40	1.030013e-003	1.000000e+001	0.000000e+000	0.000000e+000	
41	1.030023e-003	1.000000e+001	0.000000e+000	0.000000e+000	
42	1.030044e-003	1.000000e+001	0.000000e+000	0.000000e+000	
43	1.030085e-003	1.000000e+001	0.000000e+000	0.000000e+000	
44	1.030167e-003	1.000000e+001	0.000000e+000	0.000000e+000	
45	1.030331e-003	1.000000e+001	0.000000e+000	0.000000e+000	
46	1.030658e-003	1.000000e+001	0.000000e+000	0.000000e+000	
47	1.031314e-003	1.000000e+001	0.000000e+000	0.000000e+000	
48	1.032624e-003	1.000000e+001	0.000000e+000	0.000000e+000	
49	1.035246e-003	1.000000e+001	0.000000e+000	0.000000e+000	
50	1.040489e-003	1.000000e+001	0.000000e+000	0.000000e+000	
51	1.050974e-003	1.000000e+001	0.000000e+000	0.000000e+000	
52	1.071946e-003	1.000000e+001	0.000000e+000	0.000000e+000	
53	1.113889e-003	1.000000e+001	0.000000e+000	0.000000e+000	
54	1.197775e-003	1.000000e+001	0.000000e+000	0.000000e+000	

Index   time            in1             in2             out1            
--------------------------------------------------------------------------------
55	1.365547e-003	1.000000e+001	0.000000e+000	0.000000e+000	
56	1.701092e-003	1.000000e+001	0.000000e+000	0.000000e+000	
57	2.372180e-003	1.000000e+001	0.000000e+000	0.000000e+000	
58	3.714357e-003	1.000000e+001	0.000000e+000	0.000000e+000	
59	6.398712e-003	1.000000e+001	0.000000e+000	0.000000e+000	
60	1.002000e-002	1.000000e+001	0.000000e+000	0.000000e+000	
61	1.002100e-002	9.000000e+000	0.000000e+000	0.000000e+000	
62	1.002300e-002	7.000000e+000	0.000000e+000	0.000000e+000	
63	1.002700e-002	3.000000e+000	0.000000e+000	0.000000e+000	
64	1.003000e-002	0.000000e+000	0.000000e+000	0.000000e+000	
65	1.003080e-002	0.000000e+000	0.000000e+000	0.000000e+000	
66	1.003240e-002	0.000000e+000	0.000000e+000	0.000000e+000	
67	1.003560e-002	0.000000e+000	0.000000e+000	0.000000e+000	
68	1.004200e-002	0.000000e+000	0.000000e+000	0.000000e+000	
69	1.005480e-002	0.000000e+000	0.000000e+000	0.000000e+000	
70	1.008040e-002	0.000000e+000	0.000000e+000	0.000000e+000	
71	1.013160e-002	0.000000e+000	0.000000e+000	0.000000e+000	
72	1.023400e-002	0.000000e+000	0.000000e+000	0.000000e+000	
73	1.043880e-002	0.000000e+000	0.000000e+000	0.000000e+000	
74	1.084840e-002	0.000000e+000	0.000000e+000	0.000000e+000	
75	1.166760e-002	0.000000e+000	0.000000e+000	0.000000e+000	
76	1.330600e-002	0.000000e+000	0.000000e+000	0.000000e+000	
77	1.658280e-002	0.000000e+000	0.000000e+000	0.000000e+000	
78	2.001000e-002	0.000000e+000	0.000000e+000	0.000000e+000	
79	2.001100e-002	1.000000e+000	0.000000e+000	0.000000e+000	
80	2.001100e-002	1.002000e+000	0.000000e+000	0.000000e+000	
81	2.001100e-002	1.002100e+000	0.000000e+000	0.000000e+000	
82	2.001100e-002	1.002300e+000	0.000000e+000	0.000000e+000	
83	2.001100e-002	1.002700e+000	0.000000e+000	0.000000e+000	
84	2.001100e-002	1.003000e+000	0.000000e+000	0.000000e+000	
85	2.001100e-002	1.003080e+000	0.000000e+000	0.000000e+000	
86	2.001100e-002	1.003240e+000	0.000000e+000	0.000000e+000	
87	2.001100e-002	1.003560e+000	0.000000e+000	0.000000e+000	
88	2.001100e-002	1.004200e+000	0.000000e+000	0.000000e+000	
89	2.001101e-002	1.005480e+000	0.000000e+000	0.000000e+000	
90	2.001101e-002	1.008040e+000	0.000000e+000	0.000000e+000	
91	2.001101e-002	1.013160e+000	0.000000e+000	0.000000e+000	
92	2.001102e-002	1.023400e+000	0.000000e+000	0.000000e+000	
93	2.001104e-002	1.043880e+000	0.000000e+000	0.000000e+000	
94	2.001108e-002	1.084840e+000	0.000000e+000	0.000000e+000	
95	2.001117e-002	1.166760e+000	0.000000e+000	0.000000e+000	
96	2.001133e-002	1.330600e+000	0.000000e+000	0.000000e+000	
97	2.001166e-002	1.658280e+000	0.000000e+000	0.000000e+000	
98	2.001231e-002	2.313640e+000	0.000000e+000	0.000000e+000	
99	2.001362e-002	3.624360e+000	0.000000e+000	0.000000e+000	
100	2.001625e-002	6.245800e+000	0.000000e+000	0.000000e+000	
101	2.002000e-002	1.000000e+001	0.000000e+000	0.000000e+000	
102	2.002052e-002	1.000000e+001	0.000000e+000	0.000000e+000	
103	2.002157e-002	1.000000e+001	0.000000e+000	0.000000e+000	
104	2.002367e-002	1.000000e+001	0.000000e+000	0.000000e+000	
105	2.002786e-002	1.000000e+001	0.000000e+000	0.000000e+000	
106	2.003625e-002	1.000000e+001	0.000000e+000	0.000000e+000	
107	2.005303e-002	1.000000e+001	0.000000e+000	0.000000e+000	
108	2.008658e-002	1.000000e+001	0.000000e+000	0.000000e+000	
109	2.015369e-002	1.000000e+001	0.000000e+000	0.000000e+000	
110	2.028791e-002	1.000000e+001	0.000000e+000	0.000000e+000	
111	2.055635e-002	1.000000e+001	0.000000e+000	0.000000e+000	
112	2.109322e-002	1.000000e+001	0.000000e+000	0.000000e+000	

Index   time            in1             in2             out1            
--------------------------------------------------------------------------------
113	2.216696e-002	1.000000e+001	0.000000e+000	0.000000e+000	
114	2.431444e-002	1.000000e+001	0.000000e+000	0.000000e+000	
115	2.860941e-002	1.000000e+001	0.000000e+000	0.000000e+000	
116	3.002000e-002	1.000000e+001	0.000000e+000	0.000000e+000	
117	3.002100e-002	9.000000e+000	0.000000e+000	0.000000e+000	
118	3.002300e-002	7.000000e+000	0.000000e+000	0.000000e+000	
119	3.002700e-002	3.000000e+000	0.000000e+000	0.000000e+000	
120	3.003000e-002	0.000000e+000	0.000000e+000	0.000000e+000	
121	3.003080e-002	0.000000e+000	0.000000e+000	0.000000e+000	
122	3.003240e-002	0.000000e+000	0.000000e+000	0.000000e+000	
123	3.003560e-002	0.000000e+000	0.000000e+000	0.000000e+000	
124	3.004200e-002	0.000000e+000	0.000000e+000	0.000000e+000	
125	3.005480e-002	0.000000e+000	0.000000e+000	0.000000e+000	
126	3.008040e-002	0.000000e+000	0.000000e+000	0.000000e+000	
127	3.013160e-002	0.000000e+000	0.000000e+000	0.000000e+000	
128	3.023400e-002	0.000000e+000	0.000000e+000	0.000000e+000	
129	3.043880e-002	0.000000e+000	0.000000e+000	0.000000e+000	
130	3.084840e-002	0.000000e+000	0.000000e+000	0.000000e+000	
131	3.166760e-002	0.000000e+000	0.000000e+000	0.000000e+000	
132	3.330600e-002	0.000000e+000	0.000000e+000	0.000000e+000	
133	3.658280e-002	0.000000e+000	0.000000e+000	0.000000e+000	
134	4.001000e-002	0.000000e+000	0.000000e+000	0.000000e+000	
135	4.001100e-002	1.000000e+000	0.000000e+000	0.000000e+000	
136	4.001100e-002	1.002000e+000	0.000000e+000	0.000000e+000	
137	4.001100e-002	1.002100e+000	0.000000e+000	0.000000e+000	
138	4.001100e-002	1.002300e+000	0.000000e+000	0.000000e+000	
139	4.001100e-002	1.002700e+000	0.000000e+000	0.000000e+000	
140	4.001100e-002	1.003000e+000	0.000000e+000	0.000000e+000	
141	4.001100e-002	1.003080e+000	0.000000e+000	0.000000e+000	
142	4.001100e-002	1.003240e+000	0.000000e+000	0.000000e+000	
143	4.001100e-002	1.003560e+000	0.000000e+000	0.000000e+000	
144	4.001100e-002	1.004200e+000	0.000000e+000	0.000000e+000	
145	4.001101e-002	1.005480e+000	0.000000e+000	0.000000e+000	
146	4.001101e-002	1.008040e+000	0.000000e+000	0.000000e+000	
147	4.001101e-002	1.013160e+000	0.000000e+000	0.000000e+000	
148	4.001102e-002	1.023400e+000	0.000000e+000	0.000000e+000	
149	4.001104e-002	1.043880e+000	0.000000e+000	0.000000e+000	
150	4.001108e-002	1.084840e+000	0.000000e+000	0.000000e+000	
151	4.001117e-002	1.166760e+000	0.000000e+000	0.000000e+000	
152	4.001133e-002	1.330600e+000	0.000000e+000	0.000000e+000	
153	4.001166e-002	1.658280e+000	0.000000e+000	0.000000e+000	
154	4.001231e-002	2.313640e+000	0.000000e+000	0.000000e+000	
155	4.001362e-002	3.624360e+000	0.000000e+000	0.000000e+000	
156	4.001625e-002	6.245800e+000	0.000000e+000	0.000000e+000	
157	4.002000e-002	1.000000e+001	0.000000e+000	0.000000e+000	
158	4.002052e-002	1.000000e+001	0.000000e+000	0.000000e+000	
159	4.002157e-002	1.000000e+001	0.000000e+000	0.000000e+000	
160	4.002367e-002	1.000000e+001	0.000000e+000	0.000000e+000	
161	4.002786e-002	1.000000e+001	0.000000e+000	0.000000e+000	
162	4.003625e-002	1.000000e+001	0.000000e+000	0.000000e+000	
163	4.005303e-002	1.000000e+001	0.000000e+000	0.000000e+000	
164	4.008658e-002	1.000000e+001	0.000000e+000	0.000000e+000	
165	4.015369e-002	1.000000e+001	0.000000e+000	0.000000e+000	
166	4.028791e-002	1.000000e+001	0.000000e+000	0.000000e+000	
167	4.055635e-002	1.000000e+001	0.000000e+000	0.000000e+000	
168	4.109322e-002	1.000000e+001	0.000000e+000	0.000000e+000	
169	4.216696e-002	1.000000e+001	0.000000e+000	0.000000e+000	
170	4.431444e-002	1.000000e+001	0.000000e+000	0.000000e+000	

Index   time            in1             in2             out1            
--------------------------------------------------------------------------------
171	4.860941e-002	1.000000e+001	0.000000e+000	0.000000e+000	
172	5.002000e-002	1.000000e+001	0.000000e+000	0.000000e+000	
173	5.002100e-002	9.000000e+000	0.000000e+000	0.000000e+000	
174	5.002300e-002	7.000000e+000	0.000000e+000	0.000000e+000	
175	5.002700e-002	3.000000e+000	0.000000e+000	0.000000e+000	
176	5.003000e-002	0.000000e+000	0.000000e+000	0.000000e+000	
177	5.003080e-002	0.000000e+000	0.000000e+000	0.000000e+000	
178	5.003240e-002	0.000000e+000	0.000000e+000	0.000000e+000	
179	5.003560e-002	0.000000e+000	0.000000e+000	0.000000e+000	
180	5.004200e-002	0.000000e+000	0.000000e+000	0.000000e+000	
181	5.005480e-002	0.000000e+000	0.000000e+000	0.000000e+000	
182	5.008040e-002	0.000000e+000	0.000000e+000	0.000000e+000	
183	5.013160e-002	0.000000e+000	0.000000e+000	0.000000e+000	
184	5.023400e-002	0.000000e+000	0.000000e+000	0.000000e+000	
185	5.043880e-002	0.000000e+000	0.000000e+000	0.000000e+000	
186	5.084840e-002	0.000000e+000	0.000000e+000	0.000000e+000	
187	5.166760e-002	0.000000e+000	0.000000e+000	0.000000e+000	
188	5.330600e-002	0.000000e+000	0.000000e+000	0.000000e+000	
189	5.658280e-002	0.000000e+000	0.000000e+000	0.000000e+000	
190	6.001000e-002	0.000000e+000	0.000000e+000	0.000000e+000	
191	6.001100e-002	1.000000e+000	0.000000e+000	0.000000e+000	
192	6.001100e-002	1.002000e+000	0.000000e+000	0.000000e+000	
193	6.001100e-002	1.002100e+000	0.000000e+000	5.000000e-001	
194	6.001100e-002	1.002300e+000	0.000000e+000	1.500000e+000	
195	6.001100e-002	1.002700e+000	0.000000e+000	3.500000e+000	
196	6.001100e-002	1.003000e+000	0.000000e+000	5.000000e+000	
197	6.001100e-002	1.003080e+000	0.000000e+000	5.000000e+000	
198	6.001100e-002	1.003240e+000	0.000000e+000	5.000000e+000	
199	6.001100e-002	1.003560e+000	0.000000e+000	5.000000e+000	
200	6.001100e-002	1.004200e+000	0.000000e+000	5.000000e+000	
201	6.001101e-002	1.005480e+000	0.000000e+000	5.000000e+000	
202	6.001101e-002	1.008040e+000	0.000000e+000	5.000000e+000	
203	6.001101e-002	1.013160e+000	0.000000e+000	5.000000e+000	
204	6.001102e-002	1.023400e+000	0.000000e+000	5.000000e+000	
205	6.001104e-002	1.043880e+000	0.000000e+000	5.000000e+000	
206	6.001108e-002	1.084840e+000	0.000000e+000	5.000000e+000	
207	6.001117e-002	1.166760e+000	0.000000e+000	5.000000e+000	
208	6.001133e-002	1.330600e+000	0.000000e+000	5.000000e+000	
209	6.001166e-002	1.658280e+000	0.000000e+000	5.000000e+000	
210	6.001231e-002	2.313640e+000	0.000000e+000	5.000000e+000	
211	6.001362e-002	3.624360e+000	0.000000e+000	5.000000e+000	
212	6.001625e-002	6.245800e+000	0.000000e+000	5.000000e+000	
213	6.002000e-002	1.000000e+001	0.000000e+000	5.000000e+000	
214	6.002052e-002	1.000000e+001	0.000000e+000	5.000000e+000	
215	6.002157e-002	1.000000e+001	0.000000e+000	5.000000e+000	
216	6.002367e-002	1.000000e+001	0.000000e+000	5.000000e+000	
217	6.002786e-002	1.000000e+001	0.000000e+000	5.000000e+000	
218	6.003625e-002	1.000000e+001	0.000000e+000	5.000000e+000	
219	6.005303e-002	1.000000e+001	0.000000e+000	5.000000e+000	
220	6.008658e-002	1.000000e+001	0.000000e+000	5.000000e+000	
221	6.015369e-002	1.000000e+001	0.000000e+000	5.000000e+000	
222	6.028791e-002	1.000000e+001	0.000000e+000	5.000000e+000	
223	6.055635e-002	1.000000e+001	0.000000e+000	5.000000e+000	
224	6.109322e-002	1.000000e+001	0.000000e+000	5.000000e+000	
225	6.216696e-002	1.000000e+001	0.000000e+000	5.000000e+000	
226	6.431444e-002	1.000000e+001	0.000000e+000	5.000000e+000	
227	6.860941e-002	1.000000e+001	0.000000e+000	5.000000e+000	
228	7.002000e-002	1.000000e+001	0.000000e+000	5.000000e+000	

Index   time            in1             in2             out1            
--------------------------------------------------------------------------------
229	7.002100e-002	9.000000e+000	0.000000e+000	5.000000e+000	
230	7.002300e-002	7.000000e+000	0.000000e+000	5.000000e+000	
231	7.002700e-002	3.000000e+000	0.000000e+000	5.000000e+000	
232	7.003000e-002	0.000000e+000	0.000000e+000	5.000000e+000	
233	7.003080e-002	0.000000e+000	0.000000e+000	5.000000e+000	
234	7.003240e-002	0.000000e+000	0.000000e+000	5.000000e+000	
235	7.003560e-002	0.000000e+000	0.000000e+000	5.000000e+000	
236	7.004200e-002	0.000000e+000	0.000000e+000	5.000000e+000	
237	7.005480e-002	0.000000e+000	0.000000e+000	5.000000e+000	
238	7.008040e-002	0.000000e+000	0.000000e+000	5.000000e+000	
239	7.013160e-002	0.000000e+000	0.000000e+000	5.000000e+000	
240	7.023400e-002	0.000000e+000	0.000000e+000	5.000000e+000	
241	7.043880e-002	0.000000e+000	0.000000e+000	5.000000e+000	
242	7.084840e-002	0.000000e+000	0.000000e+000	5.000000e+000	
243	7.166760e-002	0.000000e+000	0.000000e+000	5.000000e+000	
244	7.330600e-002	0.000000e+000	0.000000e+000	5.000000e+000	
245	7.658280e-002	0.000000e+000	0.000000e+000	5.000000e+000	
246	8.001000e-002	0.000000e+000	0.000000e+000	5.000000e+000	
247	8.001100e-002	1.000000e+000	0.000000e+000	5.000000e+000	
248	8.001100e-002	1.002000e+000	0.000000e+000	5.000000e+000	
249	8.001100e-002	1.002100e+000	0.000000e+000	5.000000e+000	
250	8.001100e-002	1.002300e+000	0.000000e+000	5.000000e+000	
251	8.001100e-002	1.002700e+000	0.000000e+000	5.000000e+000	
252	8.001100e-002	1.003000e+000	0.000000e+000	5.000000e+000	
253	8.001100e-002	1.003080e+000	0.000000e+000	5.000000e+000	
254	8.001100e-002	1.003240e+000	0.000000e+000	5.000000e+000	
255	8.001100e-002	1.003560e+000	0.000000e+000	5.000000e+000	
256	8.001100e-002	1.004200e+000	0.000000e+000	5.000000e+000	
257	8.001101e-002	1.005480e+000	0.000000e+000	5.000000e+000	
258	8.001101e-002	1.008040e+000	0.000000e+000	5.000000e+000	
259	8.001101e-002	1.013160e+000	0.000000e+000	5.000000e+000	
260	8.001102e-002	1.023400e+000	0.000000e+000	5.000000e+000	
261	8.001104e-002	1.043880e+000	0.000000e+000	5.000000e+000	
262	8.001108e-002	1.084840e+000	0.000000e+000	5.000000e+000	
263	8.001117e-002	1.166760e+000	0.000000e+000	5.000000e+000	
264	8.001133e-002	1.330600e+000	0.000000e+000	5.000000e+000	
265	8.001166e-002	1.658280e+000	0.000000e+000	5.000000e+000	
266	8.001231e-002	2.313640e+000	0.000000e+000	5.000000e+000	
267	8.001362e-002	3.624360e+000	0.000000e+000	5.000000e+000	
268	8.001625e-002	6.245800e+000	0.000000e+000	5.000000e+000	
269	8.002000e-002	1.000000e+001	0.000000e+000	5.000000e+000	
270	8.002052e-002	1.000000e+001	0.000000e+000	5.000000e+000	
271	8.002157e-002	1.000000e+001	0.000000e+000	5.000000e+000	
272	8.002367e-002	1.000000e+001	0.000000e+000	5.000000e+000	
273	8.002786e-002	1.000000e+001	0.000000e+000	5.000000e+000	
274	8.003625e-002	1.000000e+001	0.000000e+000	5.000000e+000	
275	8.005303e-002	1.000000e+001	0.000000e+000	5.000000e+000	
276	8.008658e-002	1.000000e+001	0.000000e+000	5.000000e+000	
277	8.015369e-002	1.000000e+001	0.000000e+000	5.000000e+000	
278	8.028791e-002	1.000000e+001	0.000000e+000	5.000000e+000	
279	8.055635e-002	1.000000e+001	0.000000e+000	5.000000e+000	
280	8.109322e-002	1.000000e+001	0.000000e+000	5.000000e+000	
281	8.216696e-002	1.000000e+001	0.000000e+000	5.000000e+000	
282	8.431444e-002	1.000000e+001	0.000000e+000	5.000000e+000	
283	8.860941e-002	1.000000e+001	0.000000e+000	5.000000e+000	
284	9.002000e-002	1.000000e+001	0.000000e+000	5.000000e+000	
285	9.002100e-002	9.000000e+000	0.000000e+000	5.000000e+000	
286	9.002300e-002	7.000000e+000	0.000000e+000	5.000000e+000	

Index   time            in1             in2             out1            
--------------------------------------------------------------------------------
287	9.002700e-002	3.000000e+000	0.000000e+000	5.000000e+000	
288	9.003000e-002	0.000000e+000	0.000000e+000	5.000000e+000	
289	9.003080e-002	0.000000e+000	0.000000e+000	5.000000e+000	
290	9.003240e-002	0.000000e+000	0.000000e+000	5.000000e+000	
291	9.003560e-002	0.000000e+000	0.000000e+000	5.000000e+000	
292	9.004200e-002	0.000000e+000	0.000000e+000	5.000000e+000	
293	9.005480e-002	0.000000e+000	0.000000e+000	5.000000e+000	
294	9.008040e-002	0.000000e+000	0.000000e+000	5.000000e+000	
295	9.013160e-002	0.000000e+000	0.000000e+000	5.000000e+000	
296	9.023400e-002	0.000000e+000	0.000000e+000	5.000000e+000	
297	9.043880e-002	0.000000e+000	0.000000e+000	5.000000e+000	
298	9.084840e-002	0.000000e+000	0.000000e+000	5.000000e+000	
299	9.166760e-002	0.000000e+000	0.000000e+000	5.000000e+000	
300	9.330600e-002	0.000000e+000	0.000000e+000	5.000000e+000	
301	9.658280e-002	0.000000e+000	0.000000e+000	5.000000e+000	
302	1.000100e-001	0.000000e+000	0.000000e+000	5.000000e+000	
303	1.000110e-001	1.000000e+000	0.000000e+000	5.000000e+000	
304	1.000110e-001	1.002000e+000	0.000000e+000	5.000000e+000	
