             * c:\users\hp\esim-workspace\multiplier\multiplier.cir
             Transient Analysis  Fri May 14 20:11:32  2021
--------------------------------------------------------------------------------
Index   time            a3#branch_1_0   a3#branch_1_1   a3#branch_1_2   
--------------------------------------------------------------------------------
0	0.000000e+000	0.000000e+000	0.000000e+000	0.000000e+000	
1	1.000000e-007	0.000000e+000	0.000000e+000	0.000000e+000	
2	2.000000e-007	0.000000e+000	0.000000e+000	0.000000e+000	
3	4.000000e-007	0.000000e+000	0.000000e+000	0.000000e+000	
4	8.000000e-007	0.000000e+000	0.000000e+000	0.000000e+000	
5	1.600000e-006	0.000000e+000	0.000000e+000	0.000000e+000	
6	3.200000e-006	0.000000e+000	0.000000e+000	0.000000e+000	
7	6.400000e-006	0.000000e+000	0.000000e+000	0.000000e+000	
8	1.000000e-005	0.000000e+000	0.000000e+000	0.000000e+000	
9	1.064000e-005	0.000000e+000	0.000000e+000	0.000000e+000	
10	1.192000e-005	0.000000e+000	0.000000e+000	0.000000e+000	
11	1.192200e-005	0.000000e+000	0.000000e+000	0.000000e+000	
12	1.192210e-005	-5.00000e+002	0.000000e+000	0.000000e+000	
13	1.192230e-005	-1.50000e+003	0.000000e+000	0.000000e+000	
14	1.192270e-005	-3.50000e+003	0.000000e+000	0.000000e+000	
15	1.192300e-005	-5.00000e+003	0.000000e+000	0.000000e+000	
16	1.192308e-005	-5.00000e+003	0.000000e+000	0.000000e+000	
17	1.192324e-005	-5.00000e+003	0.000000e+000	0.000000e+000	
18	1.192356e-005	-5.00000e+003	0.000000e+000	0.000000e+000	
19	1.192420e-005	-5.00000e+003	0.000000e+000	0.000000e+000	
20	1.192548e-005	-5.00000e+003	0.000000e+000	0.000000e+000	
21	1.192804e-005	-5.00000e+003	0.000000e+000	0.000000e+000	
22	1.193316e-005	-5.00000e+003	0.000000e+000	0.000000e+000	
23	1.194340e-005	-5.00000e+003	0.000000e+000	0.000000e+000	
24	1.196388e-005	-5.00000e+003	0.000000e+000	0.000000e+000	
25	1.200484e-005	-5.00000e+003	0.000000e+000	0.000000e+000	
26	1.208676e-005	-5.00000e+003	0.000000e+000	0.000000e+000	
27	1.225060e-005	-5.00000e+003	0.000000e+000	0.000000e+000	
28	1.257828e-005	-5.00000e+003	0.000000e+000	0.000000e+000	
29	1.323364e-005	-5.00000e+003	0.000000e+000	0.000000e+000	
30	1.454436e-005	-5.00000e+003	0.000000e+000	0.000000e+000	
31	1.716580e-005	-5.00000e+003	0.000000e+000	0.000000e+000	
32	2.000000e-005	-5.00000e+003	0.000000e+000	0.000000e+000	
33	2.052429e-005	-5.00000e+003	0.000000e+000	0.000000e+000	
34	2.157286e-005	-5.00000e+003	0.000000e+000	0.000000e+000	
35	2.367002e-005	-5.00000e+003	0.000000e+000	0.000000e+000	
36	2.786432e-005	-5.00000e+003	0.000000e+000	0.000000e+000	
37	3.625293e-005	-5.00000e+003	0.000000e+000	0.000000e+000	
38	5.303014e-005	-5.00000e+003	0.000000e+000	0.000000e+000	
39	8.658458e-005	-5.00000e+003	0.000000e+000	0.000000e+000	
40	1.536934e-004	-5.00000e+003	0.000000e+000	0.000000e+000	
41	2.879112e-004	-5.00000e+003	0.000000e+000	0.000000e+000	
42	5.563466e-004	-5.00000e+003	0.000000e+000	0.000000e+000	
43	1.093218e-003	-5.00000e+003	0.000000e+000	0.000000e+000	
44	2.020000e-003	-5.00000e+003	0.000000e+000	0.000000e+000	
45	2.021000e-003	-5.00000e+003	0.000000e+000	0.000000e+000	
46	2.023000e-003	-5.00000e+003	0.000000e+000	0.000000e+000	
47	2.027000e-003	-5.00000e+003	0.000000e+000	0.000000e+000	
48	2.030000e-003	-5.00000e+003	0.000000e+000	0.000000e+000	
49	2.030002e-003	-5.00000e+003	0.000000e+000	0.000000e+000	
50	2.030002e-003	-4.50000e+003	0.000000e+000	-5.00000e+002	
51	2.030002e-003	-3.50000e+003	0.000000e+000	-1.50000e+003	
52	2.030003e-003	-1.50000e+003	0.000000e+000	-3.50000e+003	
53	2.030003e-003	-4.63380e-007	0.000000e+000	-5.00000e+003	
54	2.030003e-003	0.000000e+000	0.000000e+000	-5.00000e+003	

Index   time            a3#branch_1_0   a3#branch_1_1   a3#branch_1_2   
--------------------------------------------------------------------------------
55	2.030003e-003	0.000000e+000	0.000000e+000	-5.00000e+003	
56	2.030004e-003	0.000000e+000	0.000000e+000	-5.00000e+003	
57	2.030004e-003	0.000000e+000	0.000000e+000	-5.00000e+003	
58	2.030005e-003	0.000000e+000	0.000000e+000	-5.00000e+003	
59	2.030008e-003	0.000000e+000	0.000000e+000	-5.00000e+003	
60	2.030013e-003	0.000000e+000	0.000000e+000	-5.00000e+003	
61	2.030023e-003	0.000000e+000	0.000000e+000	-5.00000e+003	
62	2.030044e-003	0.000000e+000	0.000000e+000	-5.00000e+003	
63	2.030085e-003	0.000000e+000	0.000000e+000	-5.00000e+003	
64	2.030167e-003	0.000000e+000	0.000000e+000	-5.00000e+003	
65	2.030331e-003	0.000000e+000	0.000000e+000	-5.00000e+003	
66	2.030658e-003	0.000000e+000	0.000000e+000	-5.00000e+003	
67	2.031314e-003	0.000000e+000	0.000000e+000	-5.00000e+003	
68	2.032624e-003	0.000000e+000	0.000000e+000	-5.00000e+003	
69	2.035246e-003	0.000000e+000	0.000000e+000	-5.00000e+003	
70	2.040489e-003	0.000000e+000	0.000000e+000	-5.00000e+003	
71	2.050974e-003	0.000000e+000	0.000000e+000	-5.00000e+003	
72	2.071946e-003	0.000000e+000	0.000000e+000	-5.00000e+003	
73	2.113889e-003	0.000000e+000	0.000000e+000	-5.00000e+003	
74	2.197775e-003	0.000000e+000	0.000000e+000	-5.00000e+003	
75	2.365547e-003	0.000000e+000	0.000000e+000	-5.00000e+003	
76	2.701092e-003	0.000000e+000	0.000000e+000	-5.00000e+003	
77	3.372180e-003	0.000000e+000	0.000000e+000	-5.00000e+003	
78	4.010000e-003	0.000000e+000	0.000000e+000	-5.00000e+003	
79	4.011000e-003	0.000000e+000	0.000000e+000	-5.00000e+003	
80	4.011002e-003	0.000000e+000	0.000000e+000	-5.00000e+003	
81	4.011002e-003	-5.00000e+002	0.000000e+000	-4.50000e+003	
82	4.011002e-003	-1.50000e+003	0.000000e+000	-3.50000e+003	
83	4.011003e-003	-3.50000e+003	0.000000e+000	-1.50000e+003	
84	4.011003e-003	-5.00000e+003	0.000000e+000	0.000000e+000	
85	4.011003e-003	-5.00000e+003	0.000000e+000	0.000000e+000	
86	4.011003e-003	-5.00000e+003	0.000000e+000	0.000000e+000	
87	4.011004e-003	-5.00000e+003	0.000000e+000	0.000000e+000	
88	4.011004e-003	-5.00000e+003	0.000000e+000	0.000000e+000	
89	4.011005e-003	-5.00000e+003	0.000000e+000	0.000000e+000	
90	4.011008e-003	-5.00000e+003	0.000000e+000	0.000000e+000	
91	4.011013e-003	-5.00000e+003	0.000000e+000	0.000000e+000	
92	4.011023e-003	-5.00000e+003	0.000000e+000	0.000000e+000	
93	4.011044e-003	-5.00000e+003	0.000000e+000	0.000000e+000	
94	4.011085e-003	-5.00000e+003	0.000000e+000	0.000000e+000	
95	4.011167e-003	-5.00000e+003	0.000000e+000	0.000000e+000	
96	4.011331e-003	-5.00000e+003	0.000000e+000	0.000000e+000	
97	4.011658e-003	-5.00000e+003	0.000000e+000	0.000000e+000	
98	4.012314e-003	-5.00000e+003	0.000000e+000	0.000000e+000	
99	4.013624e-003	-5.00000e+003	0.000000e+000	0.000000e+000	
100	4.016246e-003	-5.00000e+003	0.000000e+000	0.000000e+000	
101	4.020000e-003	-5.00000e+003	0.000000e+000	0.000000e+000	
102	4.020524e-003	-5.00000e+003	0.000000e+000	0.000000e+000	
103	4.021573e-003	-5.00000e+003	0.000000e+000	0.000000e+000	
104	4.023670e-003	-5.00000e+003	0.000000e+000	0.000000e+000	
105	4.027864e-003	-5.00000e+003	0.000000e+000	0.000000e+000	
106	4.030000e-003	-5.00000e+003	0.000000e+000	0.000000e+000	
107	4.030002e-003	-5.00000e+003	0.000000e+000	0.000000e+000	
108	4.030002e-003	-4.50000e+003	-5.00000e+002	-5.00000e+002	
109	4.030002e-003	-3.50000e+003	-1.50000e+003	-1.50000e+003	
110	4.030003e-003	-1.50000e+003	-3.50000e+003	-3.50000e+003	
111	4.030003e-003	0.000000e+000	-5.00000e+003	-5.00000e+003	
112	4.030003e-003	0.000000e+000	-5.00000e+003	-5.00000e+003	

Index   time            a3#branch_1_0   a3#branch_1_1   a3#branch_1_2   
--------------------------------------------------------------------------------
113	4.030003e-003	0.000000e+000	-5.00000e+003	-5.00000e+003	
114	4.030004e-003	0.000000e+000	-5.00000e+003	-5.00000e+003	
115	4.030004e-003	0.000000e+000	-5.00000e+003	-5.00000e+003	
116	4.030005e-003	0.000000e+000	-5.00000e+003	-5.00000e+003	
117	4.030008e-003	0.000000e+000	-5.00000e+003	-5.00000e+003	
118	4.030013e-003	0.000000e+000	-5.00000e+003	-5.00000e+003	
119	4.030023e-003	0.000000e+000	-5.00000e+003	-5.00000e+003	
120	4.030044e-003	0.000000e+000	-5.00000e+003	-5.00000e+003	
121	4.030085e-003	0.000000e+000	-5.00000e+003	-5.00000e+003	
122	4.030167e-003	0.000000e+000	-5.00000e+003	-5.00000e+003	
123	4.030331e-003	0.000000e+000	-5.00000e+003	-5.00000e+003	
124	4.030658e-003	0.000000e+000	-5.00000e+003	-5.00000e+003	
125	4.031314e-003	0.000000e+000	-5.00000e+003	-5.00000e+003	
126	4.032624e-003	0.000000e+000	-5.00000e+003	-5.00000e+003	
127	4.035246e-003	0.000000e+000	-5.00000e+003	-5.00000e+003	
128	4.040489e-003	0.000000e+000	-5.00000e+003	-5.00000e+003	
129	4.050974e-003	0.000000e+000	-5.00000e+003	-5.00000e+003	
130	4.071946e-003	0.000000e+000	-5.00000e+003	-5.00000e+003	
131	4.113889e-003	0.000000e+000	-5.00000e+003	-5.00000e+003	
132	4.197775e-003	0.000000e+000	-5.00000e+003	-5.00000e+003	
133	4.365547e-003	0.000000e+000	-5.00000e+003	-5.00000e+003	
134	4.701092e-003	0.000000e+000	-5.00000e+003	-5.00000e+003	
135	5.372180e-003	0.000000e+000	-5.00000e+003	-5.00000e+003	
136	6.020000e-003	0.000000e+000	-5.00000e+003	-5.00000e+003	
137	6.021000e-003	0.000000e+000	-5.00000e+003	-5.00000e+003	
138	6.023000e-003	0.000000e+000	-5.00000e+003	-5.00000e+003	
139	6.027000e-003	0.000000e+000	-5.00000e+003	-5.00000e+003	
140	6.030000e-003	0.000000e+000	-5.00000e+003	-5.00000e+003	
141	6.030002e-003	0.000000e+000	-5.00000e+003	-5.00000e+003	
142	6.030002e-003	0.000000e+000	-4.50000e+003	-4.50000e+003	
143	6.030002e-003	0.000000e+000	-3.50000e+003	-3.50000e+003	
144	6.030003e-003	0.000000e+000	-1.50000e+003	-1.50000e+003	
145	6.030003e-003	0.000000e+000	0.000000e+000	0.000000e+000	
146	6.030003e-003	0.000000e+000	0.000000e+000	0.000000e+000	
147	6.030003e-003	0.000000e+000	0.000000e+000	0.000000e+000	
148	6.030004e-003	0.000000e+000	0.000000e+000	0.000000e+000	
149	6.030004e-003	0.000000e+000	0.000000e+000	0.000000e+000	
150	6.030005e-003	0.000000e+000	0.000000e+000	0.000000e+000	
151	6.030008e-003	0.000000e+000	0.000000e+000	0.000000e+000	
152	6.030013e-003	0.000000e+000	0.000000e+000	0.000000e+000	
153	6.030023e-003	0.000000e+000	0.000000e+000	0.000000e+000	
154	6.030044e-003	0.000000e+000	0.000000e+000	0.000000e+000	
155	6.030085e-003	0.000000e+000	0.000000e+000	0.000000e+000	
156	6.030167e-003	0.000000e+000	0.000000e+000	0.000000e+000	
157	6.030331e-003	0.000000e+000	0.000000e+000	0.000000e+000	
158	6.030658e-003	0.000000e+000	0.000000e+000	0.000000e+000	
159	6.031314e-003	0.000000e+000	0.000000e+000	0.000000e+000	
160	6.032624e-003	0.000000e+000	0.000000e+000	0.000000e+000	
161	6.035246e-003	0.000000e+000	0.000000e+000	0.000000e+000	
162	6.040489e-003	0.000000e+000	0.000000e+000	0.000000e+000	
163	6.050974e-003	0.000000e+000	0.000000e+000	0.000000e+000	
164	6.071946e-003	0.000000e+000	0.000000e+000	0.000000e+000	
165	6.113889e-003	0.000000e+000	0.000000e+000	0.000000e+000	
166	6.197775e-003	0.000000e+000	0.000000e+000	0.000000e+000	
167	6.365547e-003	0.000000e+000	0.000000e+000	0.000000e+000	
168	6.701092e-003	0.000000e+000	0.000000e+000	0.000000e+000	
169	7.372180e-003	0.000000e+000	0.000000e+000	0.000000e+000	
170	8.010000e-003	0.000000e+000	0.000000e+000	0.000000e+000	

Index   time            a3#branch_1_0   a3#branch_1_1   a3#branch_1_2   
--------------------------------------------------------------------------------
171	8.011000e-003	0.000000e+000	0.000000e+000	0.000000e+000	
172	8.013000e-003	0.000000e+000	0.000000e+000	0.000000e+000	
173	8.013002e-003	0.000000e+000	0.000000e+000	0.000000e+000	
174	8.013002e-003	-5.00000e+002	0.000000e+000	0.000000e+000	
175	8.013002e-003	-1.50000e+003	0.000000e+000	0.000000e+000	
176	8.013003e-003	-3.50000e+003	0.000000e+000	0.000000e+000	
177	8.013003e-003	-5.00000e+003	0.000000e+000	0.000000e+000	
178	8.013003e-003	-5.00000e+003	0.000000e+000	0.000000e+000	
179	8.013003e-003	-5.00000e+003	0.000000e+000	0.000000e+000	
180	8.013004e-003	-5.00000e+003	0.000000e+000	0.000000e+000	
181	8.013004e-003	-5.00000e+003	0.000000e+000	0.000000e+000	
182	8.013005e-003	-5.00000e+003	0.000000e+000	0.000000e+000	
183	8.013008e-003	-5.00000e+003	0.000000e+000	0.000000e+000	
184	8.013013e-003	-5.00000e+003	0.000000e+000	0.000000e+000	
185	8.013023e-003	-5.00000e+003	0.000000e+000	0.000000e+000	
186	8.013044e-003	-5.00000e+003	0.000000e+000	0.000000e+000	
187	8.013085e-003	-5.00000e+003	0.000000e+000	0.000000e+000	
188	8.013167e-003	-5.00000e+003	0.000000e+000	0.000000e+000	
189	8.013331e-003	-5.00000e+003	0.000000e+000	0.000000e+000	
190	8.013658e-003	-5.00000e+003	0.000000e+000	0.000000e+000	
191	8.014314e-003	-5.00000e+003	0.000000e+000	0.000000e+000	
192	8.015624e-003	-5.00000e+003	0.000000e+000	0.000000e+000	
193	8.018246e-003	-5.00000e+003	0.000000e+000	0.000000e+000	
194	8.020000e-003	-5.00000e+003	0.000000e+000	0.000000e+000	
195	8.020524e-003	-5.00000e+003	0.000000e+000	0.000000e+000	
196	8.021573e-003	-5.00000e+003	0.000000e+000	0.000000e+000	
197	8.023670e-003	-5.00000e+003	0.000000e+000	0.000000e+000	
198	8.027864e-003	-5.00000e+003	0.000000e+000	0.000000e+000	
199	8.030000e-003	-5.00000e+003	0.000000e+000	0.000000e+000	
200	8.030002e-003	-5.00000e+003	0.000000e+000	0.000000e+000	
201	8.030002e-003	-4.50000e+003	0.000000e+000	-5.00000e+002	
202	8.030002e-003	-3.50000e+003	0.000000e+000	-1.50000e+003	
203	8.030003e-003	-1.50000e+003	0.000000e+000	-3.50000e+003	
204	8.030003e-003	-2.63179e-006	0.000000e+000	-5.00000e+003	
205	8.030003e-003	0.000000e+000	0.000000e+000	-5.00000e+003	
206	8.030003e-003	0.000000e+000	0.000000e+000	-5.00000e+003	
207	8.030004e-003	0.000000e+000	0.000000e+000	-5.00000e+003	
208	8.030004e-003	0.000000e+000	0.000000e+000	-5.00000e+003	
209	8.030005e-003	0.000000e+000	0.000000e+000	-5.00000e+003	
210	8.030008e-003	0.000000e+000	0.000000e+000	-5.00000e+003	
211	8.030013e-003	0.000000e+000	0.000000e+000	-5.00000e+003	
212	8.030023e-003	0.000000e+000	0.000000e+000	-5.00000e+003	
213	8.030044e-003	0.000000e+000	0.000000e+000	-5.00000e+003	
214	8.030085e-003	0.000000e+000	0.000000e+000	-5.00000e+003	
215	8.030167e-003	0.000000e+000	0.000000e+000	-5.00000e+003	
216	8.030331e-003	0.000000e+000	0.000000e+000	-5.00000e+003	
217	8.030658e-003	0.000000e+000	0.000000e+000	-5.00000e+003	
218	8.031314e-003	0.000000e+000	0.000000e+000	-5.00000e+003	
219	8.032624e-003	0.000000e+000	0.000000e+000	-5.00000e+003	
220	8.035246e-003	0.000000e+000	0.000000e+000	-5.00000e+003	
221	8.040489e-003	0.000000e+000	0.000000e+000	-5.00000e+003	
222	8.050974e-003	0.000000e+000	0.000000e+000	-5.00000e+003	
223	8.071946e-003	0.000000e+000	0.000000e+000	-5.00000e+003	
224	8.113889e-003	0.000000e+000	0.000000e+000	-5.00000e+003	
225	8.197775e-003	0.000000e+000	0.000000e+000	-5.00000e+003	
226	8.365547e-003	0.000000e+000	0.000000e+000	-5.00000e+003	
227	8.701092e-003	0.000000e+000	0.000000e+000	-5.00000e+003	
228	9.372180e-003	0.000000e+000	0.000000e+000	-5.00000e+003	

Index   time            a3#branch_1_0   a3#branch_1_1   a3#branch_1_2   
--------------------------------------------------------------------------------
229	1.002000e-002	0.000000e+000	0.000000e+000	-5.00000e+003	
230	1.002100e-002	0.000000e+000	0.000000e+000	-5.00000e+003	
231	1.002300e-002	0.000000e+000	0.000000e+000	-5.00000e+003	
232	1.002700e-002	0.000000e+000	0.000000e+000	-5.00000e+003	
233	1.003000e-002	0.000000e+000	0.000000e+000	-5.00000e+003	
234	1.003000e-002	0.000000e+000	0.000000e+000	-5.00000e+003	
235	1.003000e-002	0.000000e+000	0.000000e+000	-4.50000e+003	
236	1.003000e-002	0.000000e+000	0.000000e+000	-3.50000e+003	
237	1.003000e-002	0.000000e+000	0.000000e+000	-1.50000e+003	
238	1.003000e-002	0.000000e+000	0.000000e+000	-2.63179e-006	
239	1.003000e-002	0.000000e+000	0.000000e+000	0.000000e+000	
240	1.003000e-002	0.000000e+000	0.000000e+000	0.000000e+000	
241	1.003000e-002	0.000000e+000	0.000000e+000	0.000000e+000	
242	1.003000e-002	0.000000e+000	0.000000e+000	0.000000e+000	
243	1.003001e-002	0.000000e+000	0.000000e+000	0.000000e+000	
244	1.003001e-002	0.000000e+000	0.000000e+000	0.000000e+000	
245	1.003001e-002	0.000000e+000	0.000000e+000	0.000000e+000	
246	1.003002e-002	0.000000e+000	0.000000e+000	0.000000e+000	
247	1.003004e-002	0.000000e+000	0.000000e+000	0.000000e+000	
248	1.003008e-002	0.000000e+000	0.000000e+000	0.000000e+000	
249	1.003017e-002	0.000000e+000	0.000000e+000	0.000000e+000	
250	1.003033e-002	0.000000e+000	0.000000e+000	0.000000e+000	
251	1.003066e-002	0.000000e+000	0.000000e+000	0.000000e+000	
252	1.003131e-002	0.000000e+000	0.000000e+000	0.000000e+000	
253	1.003262e-002	0.000000e+000	0.000000e+000	0.000000e+000	
254	1.003525e-002	0.000000e+000	0.000000e+000	0.000000e+000	
255	1.004049e-002	0.000000e+000	0.000000e+000	0.000000e+000	
256	1.005097e-002	0.000000e+000	0.000000e+000	0.000000e+000	
257	1.007195e-002	0.000000e+000	0.000000e+000	0.000000e+000	
258	1.011389e-002	0.000000e+000	0.000000e+000	0.000000e+000	
259	1.019778e-002	0.000000e+000	0.000000e+000	0.000000e+000	
260	1.036555e-002	0.000000e+000	0.000000e+000	0.000000e+000	
261	1.070109e-002	0.000000e+000	0.000000e+000	0.000000e+000	
262	1.137218e-002	0.000000e+000	0.000000e+000	0.000000e+000	
263	1.201000e-002	0.000000e+000	0.000000e+000	0.000000e+000	
264	1.201100e-002	0.000000e+000	0.000000e+000	0.000000e+000	
265	1.201300e-002	0.000000e+000	0.000000e+000	0.000000e+000	
266	1.201300e-002	0.000000e+000	0.000000e+000	0.000000e+000	
267	1.201300e-002	0.000000e+000	0.000000e+000	-5.00000e+002	
268	1.201300e-002	0.000000e+000	0.000000e+000	-1.50000e+003	
269	1.201300e-002	0.000000e+000	0.000000e+000	-3.50000e+003	
270	1.201300e-002	0.000000e+000	0.000000e+000	-5.00000e+003	
271	1.201300e-002	0.000000e+000	0.000000e+000	-5.00000e+003	
272	1.201300e-002	0.000000e+000	0.000000e+000	-5.00000e+003	
273	1.201300e-002	0.000000e+000	0.000000e+000	-5.00000e+003	
274	1.201300e-002	0.000000e+000	0.000000e+000	-5.00000e+003	
275	1.201301e-002	0.000000e+000	0.000000e+000	-5.00000e+003	
276	1.201301e-002	0.000000e+000	0.000000e+000	-5.00000e+003	
277	1.201301e-002	0.000000e+000	0.000000e+000	-5.00000e+003	
278	1.201302e-002	0.000000e+000	0.000000e+000	-5.00000e+003	
279	1.201304e-002	0.000000e+000	0.000000e+000	-5.00000e+003	
280	1.201308e-002	0.000000e+000	0.000000e+000	-5.00000e+003	
281	1.201317e-002	0.000000e+000	0.000000e+000	-5.00000e+003	
282	1.201333e-002	0.000000e+000	0.000000e+000	-5.00000e+003	
283	1.201366e-002	0.000000e+000	0.000000e+000	-5.00000e+003	
284	1.201431e-002	0.000000e+000	0.000000e+000	-5.00000e+003	
285	1.201562e-002	0.000000e+000	0.000000e+000	-5.00000e+003	
286	1.201825e-002	0.000000e+000	0.000000e+000	-5.00000e+003	

Index   time            a3#branch_1_0   a3#branch_1_1   a3#branch_1_2   
--------------------------------------------------------------------------------
287	1.202000e-002	0.000000e+000	0.000000e+000	-5.00000e+003	
288	1.202052e-002	0.000000e+000	0.000000e+000	-5.00000e+003	
289	1.202157e-002	0.000000e+000	0.000000e+000	-5.00000e+003	
290	1.202367e-002	0.000000e+000	0.000000e+000	-5.00000e+003	
291	1.202786e-002	0.000000e+000	0.000000e+000	-5.00000e+003	
292	1.203000e-002	0.000000e+000	0.000000e+000	-5.00000e+003	
293	1.203000e-002	0.000000e+000	0.000000e+000	-5.00000e+003	
294	1.203000e-002	0.000000e+000	0.000000e+000	-5.00000e+003	
295	1.203000e-002	0.000000e+000	0.000000e+000	-5.00000e+003	
296	1.203000e-002	0.000000e+000	0.000000e+000	-5.00000e+003	
297	1.203000e-002	0.000000e+000	0.000000e+000	-5.00000e+003	
298	1.203000e-002	0.000000e+000	0.000000e+000	-5.00000e+003	
299	1.203000e-002	0.000000e+000	0.000000e+000	-5.00000e+003	
300	1.203000e-002	0.000000e+000	0.000000e+000	-5.00000e+003	
301	1.203000e-002	0.000000e+000	0.000000e+000	-5.00000e+003	
302	1.203001e-002	0.000000e+000	0.000000e+000	-5.00000e+003	
303	1.203001e-002	0.000000e+000	0.000000e+000	-5.00000e+003	
304	1.203001e-002	0.000000e+000	0.000000e+000	-5.00000e+003	
